!Agilent Technologies,N5230A,MY46400908,A.07.50.13
!Agilent N5230A: A.07.50.13
!Date: Monday, September 20, 2021 15:24:12
!Correction: S11(Full 2 Port(1,2)) 
!S21(Full 2 Port(1,2)) 
!S12(Full 2 Port(1,2)) 
!S22(Full 2 Port(1,2)) 
!S2P File: Measurements: S11, S21, S12, S22:
# Hz S  RI   R 50
10000000 9.884324e-001 -2.781246e-002 -5.294757e-006 -7.297882e-007 2.692661e-006 1.035860e-006 9.996356e-001 -1.442151e-002
20618750 9.839613e-001 -4.543480e-002 2.332000e-006 3.042639e-006 8.561545e-007 1.437153e-007 1.000384e+000 -3.232039e-002
31237500 9.811714e-001 -6.429671e-002 2.840154e-006 5.227738e-006 2.682248e-006 9.851215e-008 1.000249e+000 -5.146185e-002
41856250 9.778796e-001 -8.208557e-002 2.635197e-006 6.962911e-007 2.274030e-006 2.513677e-006 9.990469e-001 -6.913316e-002
52475000 9.747341e-001 -9.899149e-002 7.032129e-006 -3.831804e-006 -6.919681e-006 4.233718e-006 9.973688e-001 -8.626784e-002
63093750 9.719328e-001 -1.167877e-001 9.155422e-006 6.749305e-006 1.164130e-005 1.053556e-005 9.954258e-001 -1.050222e-001
73712500 9.685242e-001 -1.362080e-001 -3.054614e-006 -1.318680e-006 2.365720e-005 8.614772e-006 9.924211e-001 -1.250085e-001
84331250 9.652408e-001 -1.548882e-001 -1.226460e-005 1.826261e-006 1.184589e-005 -2.273576e-006 9.895424e-001 -1.439750e-001
94950000 9.619043e-001 -1.721126e-001 8.400130e-006 1.507522e-006 4.646122e-006 -3.926831e-006 9.867162e-001 -1.613703e-001
105568750 9.580523e-001 -1.888222e-001 -4.055530e-006 -8.844130e-007 3.679530e-006 1.971914e-005 9.838970e-001 -1.785168e-001
116187500 9.536761e-001 -2.068452e-001 3.362099e-006 -7.653435e-007 8.593464e-006 -1.688708e-006 9.806405e-001 -1.964784e-001
126806250 9.487494e-001 -2.257651e-001 1.194976e-005 -1.316681e-005 -1.625220e-005 -2.278260e-006 9.767374e-001 -2.152977e-001
137425000 9.441905e-001 -2.438988e-001 1.612000e-005 -4.684365e-006 2.389900e-006 8.106722e-007 9.732863e-001 -2.334700e-001
148043750 9.396978e-001 -2.610254e-001 4.953485e-006 -4.604035e-006 1.222822e-005 2.335320e-005 9.692216e-001 -2.509274e-001
158662500 9.341834e-001 -2.780020e-001 1.263291e-005 7.458753e-006 8.173225e-006 2.271380e-006 9.643728e-001 -2.681802e-001
169281250 9.279492e-001 -2.954934e-001 2.381171e-005 -1.816754e-005 9.210378e-007 1.503648e-005 9.583430e-001 -2.861232e-001
179900000 9.218971e-001 -3.133609e-001 9.627672e-006 -8.217434e-006 -6.289064e-006 6.168174e-006 9.533772e-001 -3.039232e-001
190518750 9.162557e-001 -3.307841e-001 -1.028054e-005 7.497239e-006 4.685505e-006 -7.202694e-006 9.484398e-001 -3.214698e-001
201137500 9.098181e-001 -3.476216e-001 1.344129e-005 -2.132086e-006 3.647880e-006 -1.187231e-005 9.427785e-001 -3.386586e-001
211756250 9.022729e-001 -3.643584e-001 1.486750e-005 1.071419e-005 -2.825374e-006 5.908138e-007 9.357561e-001 -3.558865e-001
222375000 8.945628e-001 -3.813367e-001 2.511553e-005 -1.482925e-005 5.819725e-006 -1.725626e-005 9.285777e-001 -3.730867e-001
232993750 8.875149e-001 -3.984609e-001 1.138673e-005 -1.885005e-005 2.760285e-005 3.652257e-006 9.218341e-001 -3.904752e-001
243612500 8.803423e-001 -4.150007e-001 -2.183295e-006 -7.517779e-006 2.658919e-006 7.479069e-007 9.145761e-001 -4.072375e-001
254231250 8.720719e-001 -4.310376e-001 1.185414e-006 -1.006140e-005 1.617090e-005 -8.117106e-006 9.061451e-001 -4.236831e-001
264850000 8.629935e-001 -4.469918e-001 2.128820e-006 4.855309e-006 8.233496e-006 -1.101870e-005 8.972652e-001 -4.401251e-001
275468750 8.542826e-001 -4.636038e-001 1.370725e-005 -6.068499e-006 2.057010e-005 3.329013e-006 8.888362e-001 -4.572165e-001
286087500 8.457552e-001 -4.803395e-001 1.395126e-005 -1.445182e-005 2.143952e-005 -5.892898e-006 8.812396e-001 -4.740689e-001
296706250 8.367476e-001 -4.957938e-001 1.447197e-005 -1.782316e-005 2.956147e-005 7.496068e-006 8.727859e-001 -4.898044e-001
307325000 8.268966e-001 -5.105259e-001 2.235005e-006 -6.727986e-006 8.144784e-009 -8.235164e-006 8.634444e-001 -5.046608e-001
317943750 8.165460e-001 -5.256453e-001 -1.677232e-006 -1.704603e-005 1.716825e-005 -1.007967e-005 8.532755e-001 -5.202237e-001
328562500 8.064393e-001 -5.417596e-001 -1.958574e-006 1.271855e-005 3.894088e-006 2.954199e-006 8.428757e-001 -5.368634e-001
339181250 7.960553e-001 -5.577357e-001 5.810181e-006 -1.696453e-005 6.380177e-006 4.246814e-007 8.325246e-001 -5.530401e-001
349800000 7.852409e-001 -5.721890e-001 1.161963e-005 1.839818e-006 9.159611e-006 -1.568221e-005 8.220487e-001 -5.674491e-001
360418750 7.742886e-001 -5.859339e-001 1.272470e-005 -4.557243e-006 4.329519e-006 -1.473854e-005 8.117656e-001 -5.814180e-001
371037500 7.630081e-001 -6.001551e-001 2.569494e-005 8.498357e-010 1.273832e-005 -7.251542e-006 8.017808e-001 -5.965204e-001
381656250 7.514262e-001 -6.152553e-001 1.983955e-005 -1.866049e-005 1.057346e-005 -3.519364e-006 7.914571e-001 -6.123288e-001
392275000 7.393478e-001 -6.294752e-001 -2.223607e-006 -6.510200e-006 1.415639e-005 4.561086e-006 7.802098e-001 -6.269507e-001
402893750 7.271062e-001 -6.428331e-001 1.094594e-005 -1.504543e-005 -5.168924e-006 -6.939113e-006 7.681999e-001 -6.405405e-001
413512500 7.146736e-001 -6.559040e-001 3.039593e-006 -1.502477e-005 1.899322e-005 -1.187710e-006 7.558082e-001 -6.541522e-001
424131250 7.022594e-001 -6.695180e-001 -1.709901e-005 -1.330827e-005 1.055039e-005 -2.071834e-005 7.428712e-001 -6.682281e-001
434750000 6.896992e-001 -6.830634e-001 8.646486e-006 -7.429149e-006 -3.923613e-006 -2.761841e-005 7.303352e-001 -6.819113e-001
445368750 6.765683e-001 -6.955469e-001 1.156432e-005 -1.672953e-005 1.160824e-005 -6.718821e-006 7.182385e-001 -6.946748e-001
455987500 6.632125e-001 -7.076110e-001 -2.056245e-006 1.142949e-005 -1.238232e-006 -2.388111e-006 7.054844e-001 -7.077097e-001
466606250 6.495524e-001 -7.200267e-001 -1.459435e-005 -1.396515e-006 1.526020e-005 -1.708427e-005 6.920818e-001 -7.211044e-001
477225000 6.356641e-001 -7.325888e-001 8.367572e-006 5.037247e-006 1.815745e-007 -5.718714e-006 6.783673e-001 -7.345770e-001
487843750 6.219338e-001 -7.446326e-001 8.171196e-006 8.527442e-006 -8.957997e-006 4.875000e-006 6.649739e-001 -7.466659e-001
498462500 6.081170e-001 -7.555880e-001 2.212240e-007 6.078380e-006 1.848633e-005 -6.136816e-006 6.516457e-001 -7.576458e-001
509081250 5.936589e-001 -7.664301e-001 1.639350e-007 -1.286939e-005 4.552914e-008 -4.353603e-006 6.371626e-001 -7.688246e-001
519700000 5.787088e-001 -7.774514e-001 -1.566522e-006 -7.314703e-006 -3.571179e-006 -1.421171e-005 6.217481e-001 -7.803348e-001
530318750 5.635635e-001 -7.887927e-001 4.917847e-006 -9.954985e-006 -8.861527e-006 3.398659e-006 6.062949e-001 -7.922794e-001
540937500 5.486723e-001 -7.992547e-001 1.674508e-006 1.901757e-006 2.925231e-005 -1.154270e-005 5.920764e-001 -8.031998e-001
551556250 5.335854e-001 -8.092174e-001 1.042208e-005 -4.151264e-006 5.804269e-006 -1.284359e-005 5.778899e-001 -8.135042e-001
562175000 5.180820e-001 -8.186529e-001 -5.609150e-006 -2.660878e-005 1.334530e-005 -1.819406e-005 5.631399e-001 -8.237246e-001
572793750 5.025523e-001 -8.281424e-001 1.928696e-005 -2.647745e-005 -5.235383e-007 -1.735463e-005 5.477539e-001 -8.343620e-001
583412500 4.865993e-001 -8.375714e-001 -1.616534e-006 -4.454722e-006 2.011521e-006 -8.960377e-006 5.323913e-001 -8.443745e-001
594031250 4.701951e-001 -8.467591e-001 6.474338e-006 5.589462e-006 1.701394e-006 -1.208419e-005 5.165787e-001 -8.539509e-001
604650000 4.536988e-001 -8.551975e-001 1.079721e-005 -1.182506e-005 -1.712499e-005 -8.897351e-006 5.002495e-001 -8.629759e-001
615268750 4.371993e-001 -8.633695e-001 2.699104e-006 7.240691e-007 1.247778e-005 -4.592496e-006 4.838426e-001 -8.719766e-001
625887500 4.212859e-001 -8.713528e-001 -1.406669e-006 -1.274163e-005 -2.639502e-006 -1.391467e-005 4.678722e-001 -8.808748e-001
636506250 4.051230e-001 -8.791165e-001 -1.307130e-005 -1.252554e-005 6.412877e-006 -2.500813e-005 4.522526e-001 -8.894916e-001
647125000 3.880033e-001 -8.863541e-001 -1.529123e-005 2.070812e-006 -6.382865e-006 3.269234e-006 4.358802e-001 -8.977168e-001
657743750 3.702636e-001 -8.933779e-001 -1.442098e-005 -1.650299e-005 -6.549852e-006 -6.191150e-006 4.183312e-001 -9.055107e-001
668362500 3.528479e-001 -9.001914e-001 6.040653e-006 2.076405e-006 2.647497e-006 -1.690037e-005 4.006668e-001 -9.126734e-001
678981250 3.363569e-001 -9.069309e-001 -7.225102e-006 -2.042205e-005 -1.111653e-005 -1.481770e-005 3.834263e-001 -9.199420e-001
689600000 3.197096e-001 -9.131111e-001 3.919131e-006 -1.298634e-005 -7.258231e-006 -6.172577e-006 3.666988e-001 -9.265847e-001
700218750 3.020439e-001 -9.183847e-001 -1.079428e-005 -1.768131e-005 -9.923739e-006 -1.462549e-005 3.494746e-001 -9.324873e-001
710837500 2.839551e-001 -9.234721e-001 -5.490493e-006 6.752240e-006 -1.060793e-005 -1.645821e-005 3.316648e-001 -9.381460e-001
721456250 2.662263e-001 -9.288768e-001 6.999558e-006 -2.539188e-006 3.043660e-006 -9.931695e-006 3.141231e-001 -9.440307e-001
732075000 2.487506e-001 -9.342006e-001 8.990726e-007 -5.390690e-007 3.666139e-006 -1.604200e-005 2.964013e-001 -9.499243e-001
742693750 2.311749e-001 -9.386867e-001 -9.769606e-006 -2.428293e-005 -5.570632e-006 -1.762899e-006 2.789844e-001 -9.548976e-001
753312500 2.130414e-001 -9.422105e-001 1.214776e-006 -1.249667e-005 5.746776e-006 1.074226e-005 2.616886e-001 -9.592391e-001
763931250 1.952857e-001 -9.457616e-001 -7.732073e-006 1.501671e-005 -1.005143e-005 9.493326e-006 2.443521e-001 -9.635568e-001
774550000 1.778416e-001 -9.494978e-001 -9.449572e-006 -8.058869e-006 1.023866e-006 1.524252e-006 2.269616e-001 -9.684405e-001
785168750 1.599449e-001 -9.526972e-001 -2.021773e-005 -1.958458e-005 -1.288300e-006 -1.023492e-005 2.091139e-001 -9.729065e-001
795787500 1.411507e-001 -9.550921e-001 1.722082e-006 -1.131254e-005 -8.975298e-006 -5.604948e-006 1.911703e-001 -9.764022e-001
806406250 1.224781e-001 -9.569368e-001 -5.024325e-006 -1.427155e-005 -2.098500e-006 7.184300e-006 1.734861e-001 -9.794326e-001
817025000 1.046093e-001 -9.593819e-001 -9.059104e-006 -1.418974e-006 -2.964965e-005 -1.890599e-005 1.560429e-001 -9.829394e-001
827643750 8.722270e-002 -9.615102e-001 -5.060650e-006 -9.113052e-006 -2.051427e-005 -1.282610e-005 1.385490e-001 -9.862124e-001
838262500 6.934077e-002 -9.626089e-001 3.574133e-006 -2.131547e-006 7.325406e-006 9.221804e-006 1.208299e-001 -9.883571e-001
848881250 5.065243e-002 -9.626564e-001 -1.659961e-005 -7.715366e-006 7.765912e-006 -1.255799e-006 1.028438e-001 -9.896328e-001
859500000 3.183869e-002 -9.630046e-001 -8.045366e-006 8.747880e-007 1.965147e-005 3.676645e-006 8.417914e-002 -9.908154e-001
870118750 1.340130e-002 -9.641252e-001 -5.361960e-007 -6.914766e-006 -2.278986e-005 -8.965978e-006 6.546603e-002 -9.923633e-001
880737500 -4.056835e-003 -9.645753e-001 4.236552e-006 8.432421e-006 -1.249591e-005 2.134302e-006 4.747448e-002 -9.930646e-001
891356250 -2.174740e-002 -9.639210e-001 -1.643037e-005 7.721503e-006 -1.052646e-005 7.060697e-006 2.972615e-002 -9.930076e-001
901975000 -3.990719e-002 -9.623740e-001 1.706968e-005 1.108907e-005 -8.751764e-006 -1.122947e-005 1.225465e-002 -9.927110e-001
912593750 -5.862098e-002 -9.614016e-001 9.550489e-006 1.185281e-005 -1.100022e-005 6.954052e-006 -6.359724e-003 -9.927726e-001
923212500 -7.688964e-002 -9.605027e-001 5.903125e-006 4.264695e-006 -3.376361e-005 -5.794256e-006 -2.536811e-002 -9.923825e-001
933831250 -9.472413e-002 -9.590200e-001 -2.120693e-005 -8.319643e-006 1.564302e-006 1.521049e-005 -4.383031e-002 -9.911225e-001
944450000 -1.125405e-001 -9.563568e-001 9.168258e-008 1.555707e-006 8.311492e-006 9.722165e-006 -6.160839e-002 -9.892218e-001
955068750 -1.305932e-001 -9.535869e-001 -1.476229e-005 1.612390e-005 1.238286e-005 1.551503e-005 -7.954816e-002 -9.876490e-001
965687500 -1.489279e-001 -9.511086e-001 -5.716588e-006 1.492565e-005 5.287106e-006 8.805283e-006 -9.782587e-002 -9.863985e-001
976306250 -1.666419e-001 -9.483475e-001 -8.315656e-006 8.287499e-006 -7.167127e-006 -4.116858e-006 -1.159276e-001 -9.845545e-001
986925000 -1.841278e-001 -9.444737e-001 -4.013148e-006 1.012501e-005 7.826337e-007 1.248107e-005 -1.337557e-001 -9.818147e-001
997543750 -2.019365e-001 -9.400494e-001 -1.081848e-005 1.421836e-005 -1.287670e-005 1.127961e-006 -1.515989e-001 -9.790623e-001
1008162500 -2.201171e-001 -9.356006e-001 -1.230494e-005 2.297907e-005 1.198352e-006 4.480304e-006 -1.697523e-001 -9.763611e-001
1018781250 -2.377853e-001 -9.315500e-001 -4.527266e-006 -4.671729e-006 -8.322594e-006 1.060562e-005 -1.881912e-001 -9.738972e-001
1029400000 -2.546614e-001 -9.268740e-001 4.710214e-006 -2.253345e-006 -1.855026e-005 -1.364843e-006 -2.057324e-001 -9.706063e-001
1040018750 -2.711562e-001 -9.212536e-001 -1.907806e-006 5.650668e-006 1.149216e-005 4.749184e-006 -2.231669e-001 -9.666436e-001
1050637500 -2.885760e-001 -9.150680e-001 7.595337e-006 1.365398e-005 -5.135856e-006 7.724751e-006 -2.407235e-001 -9.619810e-001
1061256250 -3.065214e-001 -9.090581e-001 1.475146e-005 4.224465e-006 2.750886e-005 -6.432408e-007 -2.592289e-001 -9.574074e-001
1071875000 -3.239490e-001 -9.033111e-001 2.358543e-005 5.538026e-006 1.693177e-005 -4.270477e-006 -2.771243e-001 -9.522924e-001
1082493750 -3.399359e-001 -8.973508e-001 4.736265e-006 -1.546500e-005 2.021267e-005 -1.404841e-005 -2.940206e-001 -9.468650e-001
1093112500 -3.558767e-001 -8.905060e-001 -1.404161e-006 1.831627e-005 -2.669468e-006 2.545039e-006 -3.109155e-001 -9.408990e-001
1103731250 -3.725398e-001 -8.830698e-001 7.817565e-007 -3.205122e-006 5.272836e-006 4.912933e-006 -3.280133e-001 -9.347617e-001
1114350000 -3.894709e-001 -8.756993e-001 2.001643e-006 -1.207003e-005 2.536462e-005 6.528926e-006 -3.455778e-001 -9.283528e-001
1124968750 -4.057155e-001 -8.683344e-001 1.956237e-005 -1.777777e-005 4.570252e-006 -1.182085e-005 -3.626103e-001 -9.214298e-001
1135587500 -4.214393e-001 -8.607020e-001 -6.742398e-007 -3.081428e-006 5.983224e-006 -2.621447e-006 -3.793138e-001 -9.139670e-001
1146206250 -4.373277e-001 -8.521502e-001 5.735658e-006 -8.019021e-006 -1.862057e-006 -6.629456e-006 -3.957501e-001 -9.058863e-001
1156825000 -4.538206e-001 -8.434936e-001 -2.049333e-005 1.056388e-006 -3.830877e-007 1.653452e-005 -4.122347e-001 -8.977654e-001
1167443750 -4.694290e-001 -8.348643e-001 -3.953598e-006 6.030825e-006 -8.383850e-006 1.185749e-005 -4.284277e-001 -8.900209e-001
1178062500 -4.843468e-001 -8.261296e-001 9.471974e-007 -8.045327e-006 -8.600668e-006 -1.032107e-005 -4.444271e-001 -8.816721e-001
1188681250 -4.992839e-001 -8.164529e-001 2.190939e-005 -1.511274e-005 -6.410555e-006 8.705492e-006 -4.606158e-001 -8.724487e-001
1199300000 -5.146020e-001 -8.061697e-001 -3.895339e-006 -9.594344e-006 1.460529e-005 4.145088e-006 -4.768288e-001 -8.630169e-001
1209918750 -5.300125e-001 -7.961161e-001 -1.305428e-005 -2.717845e-005 -1.022126e-005 5.676732e-006 -4.927093e-001 -8.537034e-001
1220537500 -5.446349e-001 -7.863132e-001 -1.297248e-005 4.503988e-006 -4.638759e-006 1.002699e-006 -5.081992e-001 -8.447662e-001
1231156250 -5.586869e-001 -7.760828e-001 -6.887390e-006 2.484507e-005 -5.335296e-006 1.617426e-005 -5.232907e-001 -8.353299e-001
1241775000 -5.726007e-001 -7.648063e-001 1.623981e-006 -3.228279e-006 -1.443196e-006 1.379578e-006 -5.378412e-001 -8.251398e-001
1252393750 -5.870380e-001 -7.531598e-001 -6.942352e-006 -8.979397e-006 -3.258327e-006 -1.097437e-005 -5.524516e-001 -8.148209e-001
1263012500 -6.011875e-001 -7.418435e-001 -5.237694e-006 -1.841394e-005 6.690955e-006 -6.752928e-006 -5.676377e-001 -8.049474e-001
1273631250 -6.148218e-001 -7.307613e-001 7.806359e-006 1.451915e-006 -1.182261e-005 -1.996632e-006 -5.827956e-001 -7.946456e-001
1284250000 -6.277807e-001 -7.190809e-001 4.532281e-006 3.566363e-006 2.198154e-005 3.498043e-006 -5.976984e-001 -7.832988e-001
1294868750 -6.408404e-001 -7.065662e-001 4.733447e-006 6.789386e-006 -8.340193e-006 1.198472e-005 -6.113823e-001 -7.719761e-001
1305487500 -6.539157e-001 -6.942393e-001 -1.022611e-005 -8.037374e-006 -2.366214e-005 -8.062531e-006 -6.244002e-001 -7.611987e-001
1316106250 -6.664083e-001 -6.823290e-001 -4.124173e-006 -7.835952e-006 5.572616e-006 -1.595568e-005 -6.376027e-001 -7.501379e-001
1326725000 -6.784166e-001 -6.699348e-001 1.375848e-005 5.524652e-007 -6.659098e-006 -4.046115e-006 -6.512521e-001 -7.377631e-001
1337343750 -6.903020e-001 -6.565614e-001 -2.068888e-005 3.660267e-006 -3.347308e-007 1.281674e-005 -6.648275e-001 -7.247117e-001
1347962500 -7.025594e-001 -6.430404e-001 -1.640445e-005 -6.114596e-006 -2.195252e-006 -2.354031e-006 -6.780822e-001 -7.120162e-001
1358581250 -7.148851e-001 -6.302864e-001 -1.689126e-006 -5.097359e-006 -6.759357e-006 2.225949e-005 -6.906427e-001 -7.006831e-001
1369200000 -7.262098e-001 -6.174892e-001 1.753262e-005 8.913107e-006 -3.459808e-007 3.130297e-006 -7.026660e-001 -6.891071e-001
1379818750 -7.367142e-001 -6.039693e-001 3.857661e-006 -9.443070e-007 -2.904779e-005 6.393776e-006 -7.142131e-001 -6.761237e-001
1390437500 -7.471375e-001 -5.890265e-001 -9.298787e-006 8.203454e-006 1.100016e-005 -1.039405e-005 -7.257882e-001 -6.620589e-001
1401056250 -7.584623e-001 -5.740547e-001 -6.539304e-006 2.014255e-005 -1.461307e-006 1.425013e-006 -7.373759e-001 -6.483687e-001
1411675000 -7.694966e-001 -5.597181e-001 -6.600462e-006 -6.382332e-007 -2.364523e-005 -1.167217e-005 -7.490910e-001 -6.350038e-001
1422293750 -7.794433e-001 -5.454698e-001 -9.836929e-006 5.717852e-006 -5.190829e-006 2.717767e-005 -7.602616e-001 -6.210058e-001
1432912500 -7.886408e-001 -5.305557e-001 -1.123581e-005 1.682188e-006 -1.423317e-005 7.787079e-007 -7.708212e-001 -6.065658e-001
1443531250 -7.977892e-001 -5.150284e-001 1.039380e-005 -1.583866e-005 -2.259373e-005 8.434839e-006 -7.809221e-001 -5.925789e-001
1454150000 -8.074356e-001 -4.997789e-001 -5.321770e-006 -2.043784e-006 -1.348088e-005 6.382964e-006 -7.912630e-001 -5.788805e-001
1464768750 -8.165273e-001 -4.848434e-001 -1.234470e-005 1.097342e-005 -4.306739e-006 -6.382411e-006 -8.012761e-001 -5.646436e-001
1475387500 -8.247961e-001 -4.693687e-001 -2.129467e-006 -8.794911e-006 5.913258e-006 2.916530e-006 -8.114218e-001 -5.491440e-001
1486006250 -8.328438e-001 -4.530104e-001 -6.206621e-006 -9.107795e-006 -2.052432e-005 -3.280911e-006 -8.213505e-001 -5.329506e-001
1496625000 -8.413296e-001 -4.366885e-001 -9.463157e-006 -4.890458e-006 -9.800917e-006 1.090684e-005 -8.308054e-001 -5.180981e-001
1507243750 -8.493960e-001 -4.213982e-001 -1.281811e-005 4.795238e-006 -1.934002e-005 2.013677e-005 -8.392020e-001 -5.041970e-001
1517862500 -8.568111e-001 -4.065570e-001 -1.771321e-005 1.267013e-005 2.865571e-006 1.894852e-005 -8.477125e-001 -4.892300e-001
1528481250 -8.631833e-001 -3.904857e-001 1.839625e-006 1.008512e-005 -1.359999e-005 7.267878e-006 -8.563167e-001 -4.725845e-001
1539100000 -8.698356e-001 -3.732196e-001 -2.121817e-005 1.370315e-005 4.275201e-006 3.943924e-006 -8.655990e-001 -4.555880e-001
1549718750 -8.775301e-001 -3.557061e-001 -1.029133e-005 -6.699944e-006 7.265425e-007 1.737006e-005 -8.748379e-001 -4.397182e-001
1560337500 -8.848566e-001 -3.398000e-001 2.587279e-006 -1.150582e-005 -1.972769e-005 9.336076e-006 -8.825980e-001 -4.258972e-001
1570956250 -8.905296e-001 -3.247398e-001 8.215642e-006 -3.806578e-006 -1.230170e-005 1.579578e-005 -8.892685e-001 -4.112743e-001
1581575000 -8.949328e-001 -3.086855e-001 -1.471007e-005 3.131097e-006 6.537222e-006 9.803333e-006 -8.957263e-001 -3.944599e-001
1592193750 -8.998902e-001 -2.912219e-001 -1.649592e-006 2.350740e-006 -6.453483e-006 -1.033537e-006 -9.031181e-001 -3.768148e-001
1602812500 -9.059060e-001 -2.734967e-001 -8.843027e-006 3.280421e-006 -5.870797e-006 -1.086118e-005 -9.107611e-001 -3.598675e-001
1613431250 -9.114208e-001 -2.565606e-001 -2.043641e-007 2.279175e-005 -7.069439e-006 1.211041e-005 -9.175549e-001 -3.439911e-001
1624050000 -9.155093e-001 -2.400260e-001 -1.421852e-005 -3.697855e-006 -6.024418e-006 -6.083394e-007 -9.231975e-001 -3.277274e-001
1634668750 -9.186193e-001 -2.232056e-001 1.356363e-005 3.233153e-006 -1.302598e-005 -4.069958e-007 -9.284056e-001 -3.109275e-001
